
**** 11/08/18 10:08:21 ****** PSpice 17.2.0 (March 2016) ****** ID# 0 ********

 ** Profile: "SCHEMATIC1-testac"  [ \\gaia\sugimots\EEE230\9-OpAmps_2\opamp_ImirrorN\opamp_imirrorn-pspicefiles\schematic1\testac.sim


 ****     CIRCUIT DESCRIPTION


******************************************************************************




** Creating circuit file "testac.cir" 
** WARNING: THIS AUTOMATICALLY GENERATED FILE MAY BE OVERWRITTEN BY SUBSEQUENT SIMULATIONS

*Libraries: 
* Profile Libraries :
* Local Libraries :
.LIB "../../../opamp_imirrorn-pspicefiles/opamp_imirrorn.lib" 
* From [PSPICE NETLIST] section of C:\Users\sugimots\cdssetup\OrCAD_PSpice\17.2.0\PSpice.ini file:
.lib "nom.lib" 

*Analysis directives: 
.AC DEC 10 1k 1g
.OP
.OPTIONS ADVCONV
.OPTIONS NUMDGT= 5
.OPTIONS RELTOL= 0.0001
.PROBE64 V(alias(*)) I(alias(*)) W(alias(*)) D(alias(*)) NOISE(alias(*)) 
.INC "..\SCHEMATIC1.net" 



**** INCLUDING SCHEMATIC1.net ****
* source OPAMP_IMIRRORN
M_M1         VG3 VIN VTAIL VSSA N  
+ L={l1}  
+ W={w1}          
+ M={m1}
M_M2         VG4 VIP VTAIL VSSA N  
+ L={l1}  
+ W={w1}          
+ M={m1}
M_M9         VTAIL VBN VSSA VSSA N  
+ L={l0}  
+ W={w0}          
+ M={m9}
M_M8         VO N40261 VSSA VSSA N  
+ L={l0}  
+ W={w0}          
+ M={m7}
M_M0         VBN VBN VSSA VSSA N  
+ L={l0}  
+ W={w0}          
+ M={m0}
M_M3         VG3 VG3 VDDA VDDA P  
+ L={l3}  
+ W={w3}          
+ M={m3}
M_M4         VG4 VG4 VDDA VDDA P  
+ L={l3}  
+ W={w3}          
+ M={m3}
M_M6         VO VG4 VDDA VDDA P  
+ L={l3}  
+ W={w3}          
+ M={m5}
I_Ibias         VDDA VBN DC {ibias}  
V_Vdda         VDDA 0 {vdda}
V_Vssa         VSSA 0 {vssa}
C_CL         VSSA VO  {cl}  TC=0,0 
M_M5         N40261 VG3 VDDA VDDA P  
+ L={l3}  
+ W={w3}          
+ M={m5}
M_M7         N40261 N40261 VSSA VSSA N  
+ L={l0}  
+ W={w0}          
+ M={m7}
V_Vobias         VOBIAS 0 DC {vobias} AC 0
+PULSE {vobias} {vobias} {td+1} {tr} {tr} {pw} {per}
V_Vicm         VICM 0 DC {vicm} AC 0
+PULSE {vicm} {vicm} {td+1} {tr} {tr} {pw} {per}
V_Vidm         VIDM 0 DC 0 AC 1
+PULSE {vs1} {vs2} {td} {tr} {tr} {pw} {per}
E_Efbkn         VINX VICM VOAC VOBIAS {0.5/adm}
E_Efbkp         VIPX VICM VOAC VOBIAS {-0.5/adm}
E_Ein         VIN VINX VIDM VSSA -0.5
E_Eip         VIP VIPX VIDM VSSA 0.5
C_Cbig         VSSA VOAC  1e12  TC=0,0 
L_Lbig         VOAC VO  1e12  
.PARAM  l3=1.0u w3=3.0u m9=8 vicm=4.7 cl=3pf per=100ns vstep=10m vobias=2.5
+  vs1={(vstep/2)*-1} m7=16 vs2={(vstep/2)} adm=1 vssa=0.0 m5=16 ibias=25u m3=4
+  m0=2 tr={0.01*per} m1=2 vdda=5.0 td={per/5} pw={per/2 - tr} l1=0.5u w0=4.0u
+  l0=2.0u w1=4.0u

**** RESUMING testac.cir ****
.END

WARNING(ORPSIM-15235): Mosfet M_M1, model N: Pd = 0 is less than W

WARNING(ORPSIM-15235): Mosfet M_M1, model N: Ps = 0 is less than W

WARNING(ORPSIM-15236): Parameter XL in model N is invalid - Ignored

WARNING(ORPSIM-15235): Mosfet M_M2, model N: Pd = 0 is less than W

WARNING(ORPSIM-15235): Mosfet M_M2, model N: Ps = 0 is less than W

WARNING(ORPSIM-15235): Mosfet M_M9, model N: Pd = 0 is less than W

WARNING(ORPSIM-15235): Mosfet M_M9, model N: Ps = 0 is less than W

WARNING(ORPSIM-15235): Mosfet M_M8, model N: Pd = 0 is less than W

WARNING(ORPSIM-15235): Mosfet M_M8, model N: Ps = 0 is less than W

WARNING(ORPSIM-15235): Mosfet M_M0, model N: Pd = 0 is less than W

WARNING(ORPSIM-15235): Mosfet M_M0, model N: Ps = 0 is less than W

WARNING(ORPSIM-15235): Mosfet M_M7, model N: Pd = 0 is less than W

WARNING(ORPSIM-15235): Mosfet M_M7, model N: Ps = 0 is less than W

WARNING(ORPSIM-15235): Mosfet M_M3, model P: Pd = 0 is less than W

WARNING(ORPSIM-15235): Mosfet M_M3, model P: Ps = 0 is less than W

WARNING(ORPSIM-15236): Parameter XL in model P is invalid - Ignored

WARNING(ORPSIM-15235): Mosfet M_M4, model P: Pd = 0 is less than W

WARNING(ORPSIM-15235): Mosfet M_M4, model P: Ps = 0 is less than W

WARNING(ORPSIM-15235): Mosfet M_M6, model P: Pd = 0 is less than W

WARNING(ORPSIM-15235): Mosfet M_M6, model P: Ps = 0 is less than W

WARNING(ORPSIM-15235): Mosfet M_M5, model P: Pd = 0 is less than W

WARNING(ORPSIM-15235): Mosfet M_M5, model P: Ps = 0 is less than W

INFO(ORPSIM-15454): Model N: Using BSIM VERSION 3.1 or lower

INFO(ORPSIM-15454): Model P: Using BSIM VERSION 3.1 or lower

**** 11/08/18 10:08:21 ****** PSpice 17.2.0 (March 2016) ****** ID# 0 ********

 ** Profile: "SCHEMATIC1-testac"  [ \\gaia\sugimots\EEE230\9-OpAmps_2\opamp_ImirrorN\opamp_imirrorn-pspicefiles\schematic1\testac.sim


 ****     MOSFET MODEL PARAMETERS


******************************************************************************




               N               P               
               NMOS            PMOS            
  T_Measured   27              27            
   T_Current   27              27            
       LEVEL    7               7            
           L  100.000000E-06  100.000000E-06 
           W  100.000000E-06  100.000000E-06 
         VTO     .640222        -.915227     
          KP  146.942300E-06  146.942300E-06 
       GAMMA    0               0            
      LAMBDA    0               0            
         RSH   87.5           110.5          
          IS    1.000000E-15    1.000000E-15 
          JS  100.000000E-06  100.000000E-06 
          PB     .843214         .885568     
        PBSW     .8              .99         
          CJ  416.510600E-06  711.534200E-06 
        CJSW  352.157400E-12  229.966500E-12 
          MJ     .430423         .49134      
        MJSW     .197086         .210048     
        CGSO  180.000000E-12  222.000000E-12 
        CGDO  180.000000E-12  222.000000E-12 
        CGBO    1.000000E-09    1.000000E-09 
         TOX   14.100000E-09   14.100000E-09 
          XJ  150.000000E-09  150.000000E-09 
       UCRIT   10.000000E+03   10.000000E+03 
       DELTA     .01             .01         
      DIOMOD    2               2            
          K1     .876828         .553472     
          K2    -.098982        7.871921E-03 
        LETA    0               0            
        WETA    0               0            
          U0  462.3052        201.3603       
       XPART     .5              .5          
        VTH0     .640222        -.915227     
          K3   26.54596         0            
          W0   10.424820E-09    1.481054E-06 
         NLX    1.000000E-09   49.807880E-09 
        DVT0     .770314         .738134     
        DVT1     .36159          .30798      
          UA  131.719200E-15    2.408572E-09 
          UB    1.713723E-18    1.000000E-21 
          UC -393.568000E-15 -100.000000E-12 
        VSAT  191.903600E+03   84.146920E+03 
        RDSW    1.156129E+03    3.000000E+03 
        VOFF -134.891200E-06    -.070775     
     NFACTOR    1.198775        1.003494     
        PCLM    2.700465        2.131571     
      PDIBL1    1.244175E-03     .058557     
      PDIBL2    2.088586E-03    2.945943E-03 
       DROUT     .039871         .272923     
      PSCBE1  648.314600E+06  100.000000E+06 
      PSCBE2  265.218800E-06    3.340131E-09 
          A0     .667971         .77009      
          A1    1.722697E-06  329.358000E-06 
          A2     .3              .718257     
       NPEAK  170.000000E+15  170.000000E+15 
         LDD    0               0            
        LITL   79.655510E-09   79.655510E-09 
         UA1    4.310000E-09    4.310000E-09 
         UB1   -7.610000E-18   -7.610000E-18 
         UC1  -56.000000E-12  -56.000000E-12 
        PVAG                  903.195800E-06 
        KETA   -3.607594E-03   -4.865785E-03 
        ETA0    4.654873E-03  348.696500E-06 
        ETAB  336.920100E-06    -.2          
         K3B   -8.757671         .184263     
        DVT2    -.5             -.197798     
        DSUB     .147826        1            
      MOBMOD    1               1            
         AGS     .145809         .093289     
       DVT1W    0               0            
       DVT2W    0               0            
        PRWG     .080522        -.030097     
        PRWB     .015253        -.044314     
     PDIBLCB    -.026628        -.050791     
         DWG  -17.255320E-09  838.241700E-12 
         DWB   43.293260E-09  -15.024030E-09 
          B0    2.204050E-06  351.333100E-09 
          B1    5.000000E-06    2.035507E-09 
        LINT   75.368210E-09  118.441000E-09 
        WINT  255.020900E-09  259.408700E-09 
         DLC   75.368210E-09  118.441000E-09 
         DWC  255.020900E-09  259.408700E-09 
          CF    0               0            
        NOIA  100.000000E+18    9.900000E+18 
        NOIB   50.000000E+03    2.400000E+03 
        NOIC   -1.400000E-12    1.400000E-12 
       LKETA  -81.729160E-06    -.013097     
       WKETA   -8.269203E-03     .015814     
       PVTH0    -.093866        5.980160E-03 
       PRDSW  416.8905         14.85984      
         PK2    -.074131        3.739810E-03 
         VTM     .025864         .025864     
     VERSION    3.1             3.1          
       PBSWG     .8              .99         
       MJSWG     .197086         .210048     
       CJSWG  164.000000E-12   64.000000E-12 


WARNING(ORPSIM-15235): Mosfet M_M1, model N: Pd = 0 is less than W

WARNING(ORPSIM-15235): Mosfet M_M1, model N: Ps = 0 is less than W

WARNING(ORPSIM-15236): Parameter XL in model N is invalid - Ignored

WARNING(ORPSIM-15235): Mosfet M_M9, model N: Pd = 0 is less than W

WARNING(ORPSIM-15235): Mosfet M_M9, model N: Ps = 0 is less than W

WARNING(ORPSIM-15235): Mosfet M_M3, model P: Pd = 0 is less than W

WARNING(ORPSIM-15235): Mosfet M_M3, model P: Ps = 0 is less than W

WARNING(ORPSIM-15236): Parameter XL in model P is invalid - Ignored

**** 11/08/18 10:08:21 ****** PSpice 17.2.0 (March 2016) ****** ID# 0 ********

 ** Profile: "SCHEMATIC1-testac"  [ \\gaia\sugimots\EEE230\9-OpAmps_2\opamp_ImirrorN\opamp_imirrorn-pspicefiles\schematic1\testac.sim


 ****     SMALL SIGNAL BIAS SOLUTION       TEMPERATURE =   27.000 DEG C


******************************************************************************



 NODE   VOLTAGE     NODE   VOLTAGE     NODE   VOLTAGE     NODE   VOLTAGE


(   VO)   2.46492  (  VBN)   1.10974  (  VG3)   3.61116  (  VG4)   3.58372      

(  VIN)   4.68246  (  VIP)   4.71754  ( VDDA)   5.00000  ( VICM)   4.70000      

( VIDM)   0.00000  ( VINX)   4.68246  ( VIPX)   4.71754  ( VOAC)   2.46492      

( VSSA)   0.00000  (VTAIL)   3.43794  (N40261)   1.13396 (VOBIAS)   2.50000 




    VOLTAGE SOURCE CURRENTS
    NAME         CURRENT

    V_Vdda      -5.961E-04
    V_Vssa       5.961E-04
    V_Vobias     0.000E+00
    V_Vicm       0.000E+00
    V_Vidm       0.000E+00

    TOTAL POWER DISSIPATION   2.98E-03  WATTS


**** 11/08/18 10:08:21 ****** PSpice 17.2.0 (March 2016) ****** ID# 0 ********

 ** Profile: "SCHEMATIC1-testac"  [ \\gaia\sugimots\EEE230\9-OpAmps_2\opamp_ImirrorN\opamp_imirrorn-pspicefiles\schematic1\testac.sim


 ****     OPERATING POINT INFORMATION      TEMPERATURE =   27.000 DEG C


******************************************************************************






**** VOLTAGE-CONTROLLED VOLTAGE SOURCES


NAME         E_Efbkn     E_Efbkp     E_Ein       E_Eip     
V-SOURCE    -1.754E-02   1.754E-02   0.000E+00   0.000E+00
I-SOURCE     0.000E+00   0.000E+00   0.000E+00   0.000E+00


**** MOSFETS


NAME         M_M1        M_M2        M_M9        M_M8        M_M0      
MODEL        N           N           N           N           N         
ID           5.03E-05    5.55E-05    1.06E-04    2.37E-04    2.50E-05 
VGS          1.24E+00    1.28E+00    1.11E+00    1.13E+00    1.11E+00 
VDS          1.73E-01    1.46E-01    3.44E+00    2.46E+00    1.11E+00 
VBS         -3.44E+00   -3.44E+00    0.00E+00    0.00E+00    0.00E+00 
VTH          9.69E-01    9.69E-01    7.14E-01    7.14E-01    7.15E-01 
VDSAT        2.02E-01    2.24E-01    2.87E-01    3.04E-01    2.86E-01 
Lin0/Sat1   -1.00E+00   -1.00E+00   -1.00E+00   -1.00E+00   -1.00E+00 
if          -1.00E+00   -1.00E+00   -1.00E+00   -1.00E+00   -1.00E+00 
ir          -1.00E+00   -1.00E+00   -1.00E+00   -1.00E+00   -1.00E+00 
TAU         -1.00E+00   -1.00E+00   -1.00E+00   -1.00E+00   -1.00E+00 
GM           3.40E-04    2.78E-04    5.99E-04    1.23E-03    1.44E-04 
GDS          1.57E-04    2.58E-04    1.97E-06    4.74E-06    1.02E-06 
GMB          1.89E-05    1.56E-05    2.09E-04    4.30E-04    5.03E-05 
CBD          0.00E+00    0.00E+00    0.00E+00    0.00E+00    0.00E+00 
CBS          0.00E+00    0.00E+00    0.00E+00    0.00E+00    0.00E+00 
CGSOV        1.44E-15    1.44E-15    5.76E-15    1.15E-14    1.44E-15 
CGDOV        1.44E-15    1.44E-15    5.76E-15    1.15E-14    1.44E-15 
CGBOV        5.00E-16    5.00E-16    2.00E-15    2.00E-15    2.00E-15 
 Derivatives of gate (dQg/dVxy) and bulk (dQb/dVxy) charges
DQGDVGB      8.38E-15    8.67E-15    1.26E-13    2.52E-13    3.16E-14 
DQGDVDB     -1.85E-15   -2.39E-15   -4.97E-15   -9.95E-15   -1.25E-15 
DQGDVSB     -4.86E-15   -4.62E-15   -8.76E-14   -1.75E-13   -2.19E-14 
DQDDVGB     -3.59E-15   -3.82E-15   -4.72E-14   -9.44E-14   -1.18E-14 
DQDDVDB      1.75E-15    2.19E-15    5.00E-15    1.00E-14    1.26E-15 
DQDDVSB      1.97E-15    1.77E-15    5.88E-14    1.18E-13    1.47E-14 
DQBDVGB     -1.20E-15   -1.03E-15   -3.18E-14   -6.36E-14   -7.95E-15 
DQBDVDB     -3.92E-16   -7.30E-16   -8.89E-18   -1.91E-17   -5.66E-18 
DQBDVSB     -3.36E-16   -1.84E-16   -3.51E-14   -7.00E-14   -8.78E-15 

NAME         M_M3        M_M4        M_M6        M_M5        M_M7      
MODEL        P           P           P           P           N         
ID          -5.03E-05   -5.55E-05   -2.37E-04   -2.29E-04    2.29E-04 
VGS         -1.39E+00   -1.42E+00   -1.42E+00   -1.39E+00    1.13E+00 
VDS         -1.39E+00   -1.42E+00   -2.54E+00   -3.87E+00    1.13E+00 
VBS          0.00E+00    0.00E+00    0.00E+00    0.00E+00    0.00E+00 
VTH         -9.08E-01   -9.08E-01   -9.08E-01   -9.08E-01    7.15E-01 
VDSAT       -4.09E-01   -4.29E-01   -4.29E-01   -4.09E-01    3.04E-01 
Lin0/Sat1   -1.00E+00   -1.00E+00   -1.00E+00   -1.00E+00   -1.00E+00 
if          -1.00E+00   -1.00E+00   -1.00E+00   -1.00E+00   -1.00E+00 
ir          -1.00E+00   -1.00E+00   -1.00E+00   -1.00E+00   -1.00E+00 
TAU         -1.00E+00   -1.00E+00   -1.00E+00   -1.00E+00   -1.00E+00 
GM           1.83E-04    1.90E-04    8.03E-04    8.08E-04    1.20E-03 
GDS          3.71E-06    4.01E-06    1.16E-05    9.83E-06    9.02E-06 
GMB          4.96E-05    5.15E-05    2.17E-04    2.18E-04    4.19E-04 
CBD          0.00E+00    0.00E+00    0.00E+00    0.00E+00    0.00E+00 
CBS          0.00E+00    0.00E+00    0.00E+00    0.00E+00    0.00E+00 
CGSOV        2.66E-15    2.66E-15    1.07E-14    1.07E-14    1.15E-14 
CGDOV        2.66E-15    2.66E-15    1.07E-14    1.07E-14    1.15E-14 
CGBOV        1.00E-15    1.00E-15    1.00E-15    1.00E-15    2.00E-15 
 Derivatives of gate (dQg/dVxy) and bulk (dQb/dVxy) charges
DQGDVGB      2.21E-14    2.21E-14    8.86E-14    8.86E-14    2.52E-13 
DQGDVDB     -2.21E-15   -2.21E-15   -8.81E-15   -8.81E-15   -9.99E-15 
DQGDVSB     -1.57E-14   -1.57E-14   -6.29E-14   -6.28E-14   -1.75E-13 
DQDDVGB     -8.39E-15   -8.39E-15   -3.35E-14   -3.35E-14   -9.44E-14 
DQDDVDB      2.21E-15    2.21E-15    8.81E-15    8.81E-15    1.00E-14 
DQDDVSB      7.95E-15    7.95E-15    3.18E-14    3.18E-14    1.18E-13 
DQBDVGB     -5.37E-15   -5.37E-15   -2.15E-14   -2.15E-14   -6.36E-14 
DQBDVDB     -1.24E-18   -1.28E-18   -6.57E-19   -1.55E-19   -4.60E-17 
DQBDVSB     -2.40E-15   -2.39E-15   -9.55E-15   -9.60E-15   -7.00E-14 

          JOB CONCLUDED

**** 11/08/18 10:08:21 ****** PSpice 17.2.0 (March 2016) ****** ID# 0 ********

 ** Profile: "SCHEMATIC1-testac"  [ \\gaia\sugimots\EEE230\9-OpAmps_2\opamp_ImirrorN\opamp_imirrorn-pspicefiles\schematic1\testac.sim


 ****     JOB STATISTICS SUMMARY


******************************************************************************



  Total job time (using Solver 1)   =         .13
